 ****** HSPICE -- A-2008.03 32-BIT (Feb 26 2008) winnt ******                   
  Copyright (C) 2008 Synopsys, Inc. All Rights Reserved.                        
  Unpublished-rights reserved under US copyright laws.
  This program is protected by law and is subject to the 
  terms and conditions of the license agreement found in:
    C:\synopsys\Hspice_A-2008.03\license.warn
  Use of this program is your acceptance to be bound by this 
  license agreement. HSPICE is the trademark of Synopsys, Inc.
  Input File: c:\users\mehrdad\desktop\ca\ca3\cmos\cmos.sp                      
 Init: read install configuration file: C:\synopsys\Hspice_A-2008.03\meta.cfg
 Init: hspice initialization file: C:\synopsys\Hspice_A-2008.03\hspice.ini
 **warning** (c:\users\mehrdad\desktop\ca\ca3\cmos\cmos.sp:8) symbol: + is ignored 





 ***** params *****
 .param  +vdd = 1v
 +gnd = 0v
 +lmin = 45n
 +wp = 2
 +wn = 1

 ***** temperature *****
 .temp	25

 ***** sources *****
 *v      n+  n-  pulse   v1  v2  td  tr  tf  pw  per
 vsupply	vm	0	dc	vdd
 vina    a	0	pulse  gnd  vdd 0  1p 1p 2000p 5000p
 vinx    x	0	dc	gnd

 ***** component *****
 x1      vm      x       w1      invertercmos
 x2      vm      w1      w2      invertercmos
 x3      vm      w2      a       y1      andcmos
 x4      vm      w1      a       y2      andcmos

 ***** nand
 .subckt nandcmos        vdd     a       b       out
 mp1		out	  	a   	vdd	    vdd		pmos	l='lmin'	w='lmin*wp'
 mp2     out     b   	vdd     vdd   	pmos	l='lmin'    w='lmin*wp'
 mn1	    2	   	b   	gnd  	gnd     nmos	l='lmin'	w='lmin*wn'
 mn2	    out	   	a   	2  		2     	nmos	l='lmin'	w='lmin*wn'
 .ends nandcmos

 ***** inverter
 .subckt invertercmos	vdd     a 		out
 mp1		out	  	a   	vdd	    vdd		pmos	l='lmin'	w='lmin*wp'
 mn1	    out	   	a   	gnd  	gnd     nmos	l='lmin'	w='lmin*wn'
 .ends invertercmos

 ***** and
 .subckt andcmos    vdd     a       b       out
 xnand      vdd     a       b       wire     nandcmos
 xinverter  vdd     wire    out     invertercmos
 .ends andcmos

 ***** type of analysis *****
 ***** transient analysis:
 .tran	0.1ns     200ns   1ns

 ***** power :
 .meas tran avgpower avg  power

 ***** propagation delay :
 .measure tran tphl
 + trig v(a) val = 'vdd/2'  rise = 1
 + targ v(y2) val = 'vdd/2'  fall = 2

 .measure tran tplh
 + trig v(a) val = 'vdd/2'  fall = 1
 + targ v(y2) val = 'vdd/2'  rise = 1

 .op
 .end

 ***********************************************************************
 ** runlvl is invoked, you can disable it by:
      a) Add option runlvl=0 to your current simulation job.
      b) Copy $installdir/hspice.ini to your HOME directory and
         customize it by adding option runlvl=0, which disables
         it for all of your simulation jobs.
      c) Re-invoke $installdir/bin/config program and unselect the
         option runlvl setting in box 'hspice.ini' which disables
         it for whole group simulation jobs.

 ** runlvl is invoked, some options are ignored or automatically set:
      Options below are automatically set(user setting will overwrite them):
      if runlvl=6,            .option bypass=0
      if runlvl=[1|2|3|4|5],  .option bypass=2

      Options below are ignored, they are replaced by automated algorithms:
        lvltim    dvdt      ft    fast   trtol  absvar  relvar
          relq  chgtol    dvtr    imin    itl3    rmax

 ** runlvl is invoked, actual option value used by HSPICE are:
       runlvl= 3       bypass= 2      mbypass=   2.00   bytol= 100.00u
 ***********************************************************************

1****** HSPICE -- A-2008.03 32-BIT (Feb 26 2008) winnt ******                   
 ******  
 * cmos                                                                         
  ******  circuit name directory                                                
 ******  
 circuit number to circuit name directory
   number circuitname                     definition         multiplier
        0 main circuit
        1 x1.                             invertercmos       1.00 
        2 x2.                             invertercmos       1.00 
        3 x3.                             andcmos            1.00 
        4 x4.                             andcmos            1.00 
        5 x3.xnand.                       nandcmos           1.00 
        6 x3.xinverter.                   invertercmos       1.00 
        7 x4.xnand.                       nandcmos           1.00 
        8 x4.xinverter.                   invertercmos       1.00 

 **warning** recommend to set start explicitly:
             .TRAN tstep tstop START=val



 **warning** dc voltage reset to initial transient source value
             in source        0:vina                new dc=  0.0000D+00

 ** warning** associated with encrypted blocks were suppressed

 
      
  Opening plot unit= 79
 file=c:\users\mehrdad\desktop\ca\ca3\cmos\cmos.pa0                            


 **diagnostic** dc convergence failure, 
 resetting dcon option to 1 and retrying

 **diagnostic** dc convergence successful
 you can increase the efficiency of the
 operating point calculation by setting dcon= 1
 in the .option statement
1****** HSPICE -- A-2008.03 32-BIT (Feb 26 2008) winnt ******                   
 ******  
 * cmos                                                                         
  ******  operating point information      tnom=  25.000 temp=  25.000          
 ******  
 ***** operating point status is all       simulation time is     0.     
    node    =voltage      node    =voltage      node    =voltage

 +0:a       =   0.      0:vm      =   1.0000  0:w1      = 999.9960m
 +0:w2      =   2.9374u 0:x       =   0.      0:y1      =   2.2464u
 +0:y2      =   2.2465u 3:wire    = 999.9995m 4:wire    = 999.9972m
 +5:2       = 110.0019m 7:2       = 890.5158m


 ****  voltage sources

 subckt                                   
 element  0:vsupply  0:vina     0:vinx    
  volts      1.0000     0.         0.     
  current   -2.9448n  244.2312p  125.9515p
  power      2.9448n    0.         0.     

     total voltage source power dissipation=    2.9448n       watts




 **** mosfets


 subckt   x1         x1         x2         x2         x3.xnand   x3.xnand  
 element  1:mp1      1:mn1      2:mp1      2:mn1      5:mp1      5:mp2     
 model    0:pmos     0:nmos     0:pmos     0:nmos     0:pmos     0:pmos    
 region       Linear     Cutoff     Cutoff     Linear     Linear     Linear
  id      -839.5422p  701.8008p -344.5997p  535.6093p -110.4462p -110.4465p
  ibs     -4.517e-24  9.472e-25 -9.472e-25  5.271e-24 -4.516e-24 -4.517e-24
  ibd        5.4904a   -1.0100p    1.0100p   -4.0806a  7.223e-19  7.223e-19
  vgs       -1.0000     0.        -3.9522u  999.9960m -999.9971m   -1.0000 
  vds       -3.9522u  999.9960m -999.9971m    2.9374u -519.9377n -519.9377n
  vbs        0.         0.         0.         0.         0.         0.     
  vth     -487.5965m  339.7750m -335.9461m  466.7818m -487.5970m -487.5970m
  vdsat   -383.1157m   39.1436m  -44.4970m  327.0655m -383.1137m -383.1154m
  vod     -512.4035m -339.7750m  335.9422m  533.2142m -512.4001m -512.4030m
  beta     680.0541u    1.8693m  912.8690u    1.0028m  680.0547u  680.0538u
  gam eff  400.0000m  400.0000m  400.0000m  400.0000m  400.0000m  400.0000m
  gm       826.2152p   18.6815n    9.6156n  239.9701p  108.6934p  108.6926p
  gds      212.4210u    2.6290n    1.8234n  182.3409u  212.4218u  212.4224u
  gmb      282.7117p    4.7464n    2.2845n  111.3713p   37.1924p   37.1922p
  cdtot    127.3565a   27.1512a   56.8788a   60.1246a  127.3572a  127.3572a
  cgtot    120.3046a   27.8833a   62.9150a   53.2235a  120.3046a  120.3046a
  cstot    115.8719a   50.1904a  104.3870a   54.5952a  115.8714a  115.8714a
  cbtot    125.1126a   58.1837a  116.9331a   62.4129a  125.1126a  125.1126a
  cgs       68.2769a   14.2626a   32.5313a   29.5143a   68.2766a   68.2766a
  cgd       51.5031a    9.2581a   21.0927a   23.3522a   51.5034a   51.5034a



 subckt   x3.xnand   x3.xnand   x3.xinvert x3.xinvert x4.xnand   x4.xnand  
 element  5:mn1      5:mn2      6:mp1      6:mn1      7:mp1      7:mp2     
 model    0:nmos     0:nmos     0:pmos     0:nmos     0:pmos     0:pmos    
 region       Cutoff     Cutoff     Cutoff     Linear     Cutoff     Linear
  id        25.0361p   24.2934p -344.5680p  409.6099p -277.8967a -602.0640p
  ibs      1.124e-25  8.439e-25 -9.472e-25  5.271e-24  2.221e-28 -4.517e-24
  ibd     -119.8637f -899.9976f    1.0100p   -3.1207a    3.9374a    3.9374a
  vgs        0.      -109.9989m -519.9377n  999.9995m   -3.9522u   -1.0000 
  vds      110.0019m  889.9976m -999.9978m    2.2464u   -2.8343u   -2.8343u
  vbs        0.         0.         0.         0.         0.         0.     
  vth      452.8110m  353.7456m -335.9460m  466.7819m -487.5966m -487.5966m
  vdsat     40.2700m   39.2773m  -44.4970m  327.0672m  -45.1986m -383.1156m
  vod     -452.8110m -463.7445m  335.9455m  533.2176m  487.5927m -512.4034m
  beta       1.5293m    1.8237m  912.8692u    1.0028m  714.7630u  680.0540u
  gam eff  400.0000m  400.0000m  400.0000m  400.0000m  400.0000m  400.0000m
  gm       674.3718p  654.6754p    9.6147n  183.5155p    7.8415f  592.5057p
  gds      105.1529p   91.0813p    1.8232n  182.3414u   98.0461p  212.4215u
  gmb      184.3304p  179.8929p    2.2843n   85.1710p    2.0511f  202.7419p
  cdtot     34.3965a   27.4866a   56.8788a   60.1247a   77.4407a  127.3567a
  cgtot     31.3196a   26.6430a   62.9149a   53.2236a   74.3528a  120.3046a
  cstot     50.1903a   48.6227a  104.3869a   54.5951a  104.3868a  115.8717a
  cbtot     61.9925a   58.8465a  116.9331a   62.4130a  126.0569a  125.1126a
  cgs       14.2624a   12.6948a   32.5312a   29.5142a   32.5311a   68.2768a
  cgd       12.6946a    9.2581a   21.0927a   23.3523a   32.5307a   51.5032a



 subckt   x4.xnand   x4.xnand   x4.xinvert x4.xinvert
 element  7:mn1      7:mn2      8:mp1      8:mn1     
 model    0:nmos     0:nmos     0:pmos     0:nmos    
 region       Cutoff     Cutoff     Cutoff     Linear
  id       466.5290p  470.8182p -344.5902p  409.6316p
  ibs      8.444e-25  1.119e-25 -9.472e-25  5.271e-24
  ibd     -900.5158f -119.3403f    1.0100p   -3.1209a
  vgs        0.       109.4803m   -2.8343u  999.9972m
  vds      890.5158m  109.4814m -999.9978m    2.2465u
  vbs        0.         0.         0.         0.     
  vth      353.6798m  452.8771m -335.9460m  466.7819m
  vdsat     39.2839m   40.2807m  -44.4970m  327.0660m
  vod     -353.6798m -343.3969m  335.9432m  533.2153m
  beta       1.8239m    1.5291m  912.8692u    1.0028m
  gam eff  400.0000m  400.0000m  400.0000m  400.0000m
  gm        12.4500n   12.5420n    9.6153n  183.5268p
  gds        1.7336n    1.9628n    1.8234n  182.3413u
  gmb        3.1925n    3.2001n    2.2844n   85.1760p
  cdtot     27.5714a   35.9674a   56.8788a   60.1247a
  cgtot     27.9697a   33.9775a   62.9149a   53.2235a
  cstot     50.1903a   51.5427a  104.3869a   54.5951a
  cbtot     58.5175a   61.7337a  116.9331a   62.4130a
  cgs       14.2625a   15.6148a   32.5313a   29.5142a
  cgd        9.3446a   14.2622a   21.0927a   23.3523a



 ******  
 * cmos                                                                         
  ******  transient analysis               tnom=  25.000 temp=  25.000          
 ******  

**warning** measure results may be incorrect
       since initial start time is non-zero.
   avgpower=  1.3486E-07  from=  1.0000E-09     to=  2.0000E-07
   tphl=  2.0073E-09  targ=  7.0078E-09   trig=  5.0005E-09
   tplh=  3.0099E-09  targ=  5.0114E-09   trig=  2.0015E-09

          ***** job concluded
1****** HSPICE -- A-2008.03 32-BIT (Feb 26 2008) winnt ******                   
 ******  
 * cmos                                                                         
  ******  job statistics summary           tnom=  25.000 temp=  25.000          
 ******  

           total memory used        207 kbytes

  # nodes =      76 # elements=      19
  # diodes=       0 # bjts    =       0 # jfets   =       0 # mosfets =      16
  # va device =       0

    analysis           time    # points   tot. iter  conv.iter

    op point           0.04           1         248
    transient          0.60        1991        6355        2398 rev=       159
    readin             0.02
    errchk             0.01
    setup              0.02
    output             0.00
           total cpu time          0.69 seconds
           total elapsed time         1 seconds
               job started at  05:53:30 11/21/2018
               job ended   at  05:53:31 11/21/2018


 Init: hspice initialization file: C:\synopsys\Hspice_A-2008.03\hspice.ini
