 ****** HSPICE -- A-2008.03 32-BIT (Feb 26 2008) winnt ******                   
  Copyright (C) 2008 Synopsys, Inc. All Rights Reserved.                        
  Unpublished-rights reserved under US copyright laws.
  This program is protected by law and is subject to the 
  terms and conditions of the license agreement found in:
    C:\synopsys\Hspice_A-2008.03\license.warn
  Use of this program is your acceptance to be bound by this 
  license agreement. HSPICE is the trademark of Synopsys, Inc.
  Input File: c:\users\mehrdad\desktop\ca\ca3\seudo\seudo.sp                    
 Init: read install configuration file: C:\synopsys\Hspice_A-2008.03\meta.cfg
 Init: hspice initialization file: C:\synopsys\Hspice_A-2008.03\hspice.ini
 **warning** (c:\users\mehrdad\desktop\ca\ca3\seudo\seudo.sp:8) symbol: + is ignored 





 ***** params *****
 .param  +vdd = 1v
 +gnd = 0v
 +lmin = 45n
 +wp = 1
 +wn = 3

 ***** temperature *****
 .temp	25

 ***** sources *****
 *v      n+  n-  pulse   v1  v2  td  tr  tf  pw  per
 vsupply	vm	0	dc	vdd
 vgnd	vg	0	dc	gnd
 vina    a	0	pulse  gnd  vdd 0  1p 1p 2000p 5000p
 vinx    x	0	gnd

 ***** component *****
 x1      vm      vg      x       w1      inverterseudo
 x2      vm      vg      w1      w2      inverterseudo
 x3      vm      vg      w2      a       y1      andseudo
 x4      vm      vg      w1      a       y2      andseudo

 ***** nand
 .subckt nandseudo       vdd     gnd     a       b       out
 mp1		out	  	gnd   	vdd	    vdd		pmos	l='lmin'	w='lmin*wp'
 mp2     out     gnd   	vdd     vdd   	pmos	l='lmin'    w='lmin*wp'
 mn1	    2	   	b   	gnd  	gnd     nmos	l='lmin'	w='lmin*wn'
 mn2	    out	   	a   	2  		2     	nmos	l='lmin'	w='lmin*wn'
 .ends nandseudo

 ***** inverter
 .subckt inverterseudo	vdd     gnd     a 		out
 mp1		out	  	gnd   	vdd	    vdd		pmos	l='lmin'	w='lmin*wp'
 mn1	    out	   	a   	gnd  	gnd     nmos	l='lmin'	w='lmin*wn'
 .ends inverterseudo

 ***** and
 .subckt andseudo    vdd     gnd     a       b       out
 xnand      vdd      gnd     a       b       wire     nandseudo
 xinverter  vdd      gnd     wire    out     inverterseudo
 .ends andseudo

 ***** type of analysis *****
 ***** transient analysis:
 .tran	0.1ns     200ns   1ns
 ***** power :
 .meas tran avgpower avg  power

 ***** propagation delay :
 .measure tran tphl
 + trig v(a) val = 'vdd/2'  rise = 1
 + targ v(y2) val = 'vdd/2'  fall = 2

 .measure tran tplh
 + trig v(a) val = 'vdd/2'  fall = 1
 + targ v(y2) val = 'vdd/2'  rise = 1

 .op
 .end

 ***********************************************************************
 ** runlvl is invoked, you can disable it by:
      a) Add option runlvl=0 to your current simulation job.
      b) Copy $installdir/hspice.ini to your HOME directory and
         customize it by adding option runlvl=0, which disables
         it for all of your simulation jobs.
      c) Re-invoke $installdir/bin/config program and unselect the
         option runlvl setting in box 'hspice.ini' which disables
         it for whole group simulation jobs.

 ** runlvl is invoked, some options are ignored or automatically set:
      Options below are automatically set(user setting will overwrite them):
      if runlvl=6,            .option bypass=0
      if runlvl=[1|2|3|4|5],  .option bypass=2

      Options below are ignored, they are replaced by automated algorithms:
        lvltim    dvdt      ft    fast   trtol  absvar  relvar
          relq  chgtol    dvtr    imin    itl3    rmax

 ** runlvl is invoked, actual option value used by HSPICE are:
       runlvl= 3       bypass= 2      mbypass=   2.00   bytol= 100.00u
 ***********************************************************************

1****** HSPICE -- A-2008.03 32-BIT (Feb 26 2008) winnt ******                   
 ******  
 * seudo                                                                        
  ******  circuit name directory                                                
 ******  
 circuit number to circuit name directory
   number circuitname                     definition         multiplier
        0 main circuit
        1 x1.                             inverterseudo      1.00 
        2 x2.                             inverterseudo      1.00 
        3 x3.                             andseudo           1.00 
        4 x4.                             andseudo           1.00 
        5 x3.xnand.                       nandseudo          1.00 
        6 x3.xinverter.                   inverterseudo      1.00 
        7 x4.xnand.                       nandseudo          1.00 
        8 x4.xinverter.                   inverterseudo      1.00 

 **warning** recommend to set start explicitly:
             .TRAN tstep tstop START=val



 **warning** dc voltage reset to initial transient source value
             in source        0:vina                new dc=  0.0000D+00

 ** warning** associated with encrypted blocks were suppressed

 
      
  Opening plot unit= 79
 file=c:\users\mehrdad\desktop\ca\ca3\seudo\seudo.pa0                          

1****** HSPICE -- A-2008.03 32-BIT (Feb 26 2008) winnt ******                   
 ******  
 * seudo                                                                        
  ******  operating point information      tnom=  25.000 temp=  25.000          
 ******  
 ***** operating point status is all       simulation time is     0.     
    node    =voltage      node    =voltage      node    =voltage

 +0:a       =   0.      0:vg      =   0.      0:vm      =   1.0000 
 +0:w1      = 999.9733m 0:w2      =  65.2151m 0:x       =   0.     
 +0:y1      =  65.2141m 0:y2      =  65.2144m 3:wire    = 999.9989m
 +4:wire    = 999.9909m 5:2       = 159.9074m 7:2       = 890.5380m


 ****  voltage sources

 subckt                                              
 element  0:vsupply  0:vgnd     0:vina     0:vinx    
  volts      1.0000     0.         0.         0.     
  current -105.7537u  105.7537u   12.6659p   19.9997p
  power    105.7537u    0.         0.         0.     

     total voltage source power dissipation=  105.7537u       watts




 **** mosfets


 subckt   x1         x1         x2         x2         x3.xnand   x3.xnand  
 element  1:mp1      1:mn1      2:mp1      2:mn1      5:mp1      5:mp2     
 model    0:pmos     0:nmos     0:pmos     0:nmos     0:pmos     0:pmos    
 region       Linear     Cutoff   Saturati     Linear     Linear     Linear
  id        -2.6033n    2.5093n  -35.2496u   35.2496u -111.8037p -111.8037p
  ibs     -1.976e-24  9.478e-25 -1.572e-23  2.126e-23 -1.976e-24 -1.976e-24
  ibd       37.0887a   -1.0100p  944.7849f  -74.4251f    1.5930a    1.5930a
  vgs       -1.0000     0.        -1.0000   999.9733m   -1.0000    -1.0000 
  vds      -26.7013u  999.9733m -934.7849m   65.2151m   -1.1467u   -1.1467u
  vbs        0.         0.         0.         0.         0.         0.     
  vth     -487.5930m  339.7779m -345.8357m  458.4993m -487.5969m -487.5969m
  vdsat   -379.4433m   39.3520m -445.5956m  342.9064m -379.4413m -379.4413m
  vod     -512.4070m -339.7779m -654.1643m  541.4740m -512.4031m -512.4031m
  beta     297.5245u    6.6759m  331.3852u    3.6076m  297.5236u  297.5236u
  gam eff  400.0000m  400.0000m  400.0000m  400.0000m  400.0000m  400.0000m
  gm         2.6834n   66.7963n   64.2591u   18.7795u  115.2416p  115.2416p
  gds       97.4932u    9.4008n   16.2424u  501.3164u   97.4982u   97.4982u
  gmb      919.0838p   16.9722n   14.3806u    7.3780u   39.4719p   39.4719p
  cdtot     58.5232a   86.7442a   32.4639a  171.6893a   58.5256a   58.5256a
  cgtot     52.8852a   98.4312a   49.5809a  187.5288a   52.8853a   52.8853a
  cstot     55.1863a  158.7211a   63.0805a  189.8160a   55.1848a   55.1848a
  cbtot     62.2863a  175.8921a   57.1501a  186.0652a   62.2867a   62.2867a
  cgs       29.8719a   50.9378a   35.7505a  115.0210a   29.8710a   29.8710a
  cgd       22.5318a   33.0648a   13.0488a   72.0716a   22.5327a   22.5327a



 subckt   x3.xnand   x3.xnand   x3.xinvert x3.xinvert x4.xnand   x4.xnand  
 element  5:mn1      5:mn2      6:mp1      6:mn1      7:mp1      7:mp2     
 model    0:nmos     0:nmos     0:pmos     0:nmos     0:pmos     0:pmos    
 region       Cutoff     Cutoff   Saturati     Linear     Linear     Linear
  id       109.3563p  108.8562p  -35.2496u   35.2496u -890.2425p -890.2425p
  ibs      1.593e-25  7.972e-25 -1.572e-23  2.127e-23 -1.976e-24 -1.976e-24
  ibd     -169.8876f -850.0914f  944.7859f  -74.4241f   12.6843a   12.6843a
  vgs        0.       -94.6924m   -1.0000   999.9989m   -1.0000    -1.0000 
  vds      159.9074m  840.0914m -934.7859m   65.2141m   -9.1309u   -9.1309u
  vbs        0.         0.         0.         0.         0.         0.     
  vth      446.4726m  360.0840m -345.8355m  458.4994m -487.5957m -487.5957m
  vdsat     40.3670m   39.5405m -445.5956m  342.9202m -379.4419m -379.4419m
  vod     -446.4726m -454.7764m -654.1645m  541.4994m -512.4043m -512.4043m
  beta       5.5235m    6.4404m  331.3852u    3.6075m  297.5239u  297.5239u
  gam eff  400.0000m  400.0000m  400.0000m  400.0000m  400.0000m  400.0000m
  gm         2.9447n    2.9324n   64.2591u   18.7776u  917.6283p  917.6283p
  gds      425.4697p  406.7295p   16.2424u  501.3262u   97.4966u   97.4966u
  gmb      801.7391p  801.4964p   14.3806u    7.3776u  314.2982p  314.2982p
  cdtot    107.2881a   88.4078a   32.4638a  171.6922a   58.5248a   58.5248a
  cgtot    108.4783a   94.7391a   49.5808a  187.5292a   52.8853a   52.8853a
  cstot    158.7206a  153.8645a   63.0805a  189.8151a   55.1852a   55.1852a
  cbtot    186.3884a  178.3702a   57.1501a  186.0653a   62.2866a   62.2866a
  cgs       50.9371a   46.0810a   35.7505a  115.0205a   29.8713a   29.8713a
  cgd       43.1125a   33.2398a   13.0488a   72.0726a   22.5324a   22.5324a



 subckt   x4.xnand   x4.xnand   x4.xinvert x4.xinvert
 element  7:mn1      7:mn2      8:mp1      8:mn1     
 model    0:nmos     0:nmos     0:pmos     0:nmos    
 region       Cutoff     Cutoff   Saturati     Linear
  id         1.6683n    1.6817n  -35.2496u   35.2496u
  ibs      8.446e-25  1.120e-25 -1.572e-23  2.127e-23
  ibd     -900.5380f -119.3117f  944.7856f  -74.4244f
  vgs        0.       109.4353m   -1.0000   999.9909m
  vds      890.5380m  109.4529m -934.7856m   65.2144m
  vbs        0.         0.         0.         0.     
  vth      353.6770m  452.8807m -345.8355m  458.4994m
  vdsat     39.4851m   40.4364m -445.5956m  342.9159m
  vod     -353.6770m -343.4454m -654.1645m  541.4915m
  beta       6.5139m    5.4610m  331.3852u    3.6075m
  gam eff  400.0000m  400.0000m  400.0000m  400.0000m
  gm        44.5219n   44.7971n   64.2591u   18.7782u
  gds        6.2000n    7.0045n   16.2424u  501.3231u
  gmb       11.4173n   11.4312n   14.3806u    7.3777u
  cdtot     88.0537a  116.0518a   32.4638a  171.6913a
  cgtot     98.7396a  120.1943a   49.5808a  187.5291a
  cstot    158.7209a  163.5490a   63.0805a  189.8154a
  cbtot    176.8931a  186.3932a   57.1501a  186.0653a
  cgs       50.9376a   55.7657a   35.7505a  115.0207a
  cgd       33.3734a   50.9357a   13.0488a   72.0723a



 ******  
 * seudo                                                                        
  ******  transient analysis               tnom=  25.000 temp=  25.000          
 ******  

**warning** measure results may be incorrect
       since initial start time is non-zero.
   avgpower=  1.1790E-04  from=  1.0000E-09     to=  2.0000E-07
   tphl=  2.0057E-09  targ=  7.0062E-09   trig=  5.0005E-09
   tplh=  3.0076E-09  targ=  5.0091E-09   trig=  2.0015E-09

          ***** job concluded
1****** HSPICE -- A-2008.03 32-BIT (Feb 26 2008) winnt ******                   
 ******  
 * seudo                                                                        
  ******  job statistics summary           tnom=  25.000 temp=  25.000          
 ******  

           total memory used        211 kbytes

  # nodes =      77 # elements=      20
  # diodes=       0 # bjts    =       0 # jfets   =       0 # mosfets =      16
  # va device =       0

    analysis           time    # points   tot. iter  conv.iter

    op point           0.02           1          27
    transient          0.66        1991        6517        2399 rev=       159
    readin             0.02
    errchk             0.01
    setup              0.01
    output             0.00
           total cpu time          0.77 seconds
           total elapsed time         1 seconds
               job started at  06:31:27 11/21/2018
               job ended   at  06:31:28 11/21/2018


 Init: hspice initialization file: C:\synopsys\Hspice_A-2008.03\hspice.ini
