 ****** HSPICE -- A-2008.03 32-BIT (Feb 26 2008) winnt ******                   
  Copyright (C) 2008 Synopsys, Inc. All Rights Reserved.                        
  Unpublished-rights reserved under US copyright laws.
  This program is protected by law and is subject to the 
  terms and conditions of the license agreement found in:
    C:\synopsys\Hspice_A-2008.03\license.warn
  Use of this program is your acceptance to be bound by this 
  license agreement. HSPICE is the trademark of Synopsys, Inc.
  Input File: c:\users\mehrdad\desktop\ca\ca3\seudo\seudo.sp                    
 Init: read install configuration file: C:\synopsys\Hspice_A-2008.03\meta.cfg
 Init: hspice initialization file: C:\synopsys\Hspice_A-2008.03\hspice.ini
 **warning** (c:\users\mehrdad\desktop\ca\ca3\seudo\seudo.sp:8) symbol: + is ignored 





 ***** params *****
 .param  +vdd = 1v
 +gnd = 0v
 +lmin = 45n
 +wp = 8
 +wn = 1

 ***** temperature *****
 .temp	25

 ***** sources *****
 *v      n+  n-  pulse   v1  v2  td  tr  tf  pw  per
 vsupply	vm	0	dc	vdd
 vina    a	0	dc  vdd
 vinx    x	0	pulse  gnd  vdd 0  1p 1p 2000p 5000p
 *pulse  gnd  vdd 0  1p 1p 2000p 5000p

 ***** component *****
 x1      vm      x       w1      inverterseudo
 x2      vm      w1      w2      inverterseudo
 x3      vm      w2      a       y1      andseudo
 x4      vm      w1      a       y2      andseudo

 ***** nand
 .subckt nandseudo        vdd     a       b       out
 mp1		out	  	a   	vdd	    vdd		pmos	l='lmin'	w='lmin*wp'
 mp2     out     b   	vdd     vdd   	pmos	l='lmin'    w='lmin*wp'
 mn1	    2	   	b   	gnd  	gnd     nmos	l='lmin'	w='lmin*wn'
 mn2	    out	   	a   	2  		2     	nmos	l='lmin'	w='lmin*wn'
 .ends nandseudo

 ***** inverter
 .subckt inverterseudo	vdd     a 		out
 mp1		out	  	vdd   	vdd	    vdd		pmos	l='lmin'	w='lmin*wp'
 mn1	    out	   	a   	gnd  	gnd     nmos	l='lmin'	w='lmin*wn'
 .ends inverterseudo

 ***** and
 .subckt andseudo    vdd     a       b       out
 xnand      vdd     a       b       outnand     nandseudo
 xinverter  vdd     outnand     out     inverterseudo
 .ends andseudo

 ***** type of analysis *****
 ***** transient analysis:
 .tran	0.1ns     200ns   1ns
 ***** power :
 .meas tran avgpower avg  power

 ***** propagation delay :
 .measure tran tphl
 + trig v(x) val = 'vdd/2'  rise = 1
 + targ v(y1) val = 'vdd/2'  fall = 1

 .measure tran tplh
 + trig v(x) val = 'vdd/2'  fall = 1
 + targ v(y1) val = 'vdd/2'  rise = 1

 .op
 .end

 ***********************************************************************
 ** runlvl is invoked, you can disable it by:
      a) Add option runlvl=0 to your current simulation job.
      b) Copy $installdir/hspice.ini to your HOME directory and
         customize it by adding option runlvl=0, which disables
         it for all of your simulation jobs.
      c) Re-invoke $installdir/bin/config program and unselect the
         option runlvl setting in box 'hspice.ini' which disables
         it for whole group simulation jobs.

 ** runlvl is invoked, some options are ignored or automatically set:
      Options below are automatically set(user setting will overwrite them):
      if runlvl=6,            .option bypass=0
      if runlvl=[1|2|3|4|5],  .option bypass=2

      Options below are ignored, they are replaced by automated algorithms:
        lvltim    dvdt      ft    fast   trtol  absvar  relvar
          relq  chgtol    dvtr    imin    itl3    rmax

 ** runlvl is invoked, actual option value used by HSPICE are:
       runlvl= 3       bypass= 2      mbypass=   2.00   bytol= 100.00u
 ***********************************************************************

1****** HSPICE -- A-2008.03 32-BIT (Feb 26 2008) winnt ******                   
 ******  
 * seudo                                                                        
  ******  circuit name directory                                                
 ******  
 circuit number to circuit name directory
   number circuitname                     definition         multiplier
        0 main circuit
        1 x1.                             inverterseudo      1.00 
        2 x2.                             inverterseudo      1.00 
        3 x3.                             andseudo           1.00 
        4 x4.                             andseudo           1.00 
        5 x3.xnand.                       nandseudo          1.00 
        6 x3.xinverter.                   inverterseudo      1.00 
        7 x4.xnand.                       nandseudo          1.00 
        8 x4.xinverter.                   inverterseudo      1.00 

 **warning** recommend to set start explicitly:
             .TRAN tstep tstop START=val



 **warning** dc voltage reset to initial transient source value
             in source        0:vinx                new dc=  0.0000D+00

 ** warning** associated with encrypted blocks were suppressed

 
      
  Opening plot unit= 79
 file=c:\users\mehrdad\desktop\ca\ca3\seudo\seudo.pa0                          


 **diagnostic** dc convergence failure, 
 resetting dcon option to 1 and retrying

 **diagnostic** dc convergence successful
 you can increase the efficiency of the
 operating point calculation by setting dcon= 1
 in the .option statement
1****** HSPICE -- A-2008.03 32-BIT (Feb 26 2008) winnt ******                   
 ******  
 * seudo                                                                        
  ******  operating point information      tnom=  25.000 temp=  25.000          
 ******  
 ***** operating point status is all       simulation time is     0.     
    node    =voltage      node    =voltage      node    =voltage

 +0:a       =   1.0000  0:vm      =   1.0000  0:w1      = 550.1196m
 +0:w2      =  28.9450u 0:x       =   0.      0:y1      =   9.7216u
 +0:y2      =  16.1787u 3:outnand = 999.9989m 4:outnand = 615.6766m
 +5:2       =   3.8861u 7:2       =  41.0583m


 ****  voltage sources

 subckt                                   
 element  0:vsupply  0:vina     0:vinx    
  volts      1.0000     1.0000     0.     
  current   -7.1322u  -41.0937p  670.0230f
  power      7.1322u   41.0937p    0.     

     total voltage source power dissipation=    7.1322u       watts




 **** mosfets


 subckt   x1         x1         x2         x2         x3.xnand   x3.xnand  
 element  1:mp1      1:mn1      2:mp1      2:mn1      5:mp1      5:mp2     
 model    0:pmos     0:nmos     0:pmos     0:nmos     0:pmos     0:pmos    
 region       Cutoff     Cutoff     Cutoff     Linear     Linear     Cutoff
  id      -106.2981p  132.2321p   -1.5093n    2.2995n -980.2814p -468.3403a
  ibs     -4.314e-25  5.252e-25 -9.480e-25  1.144e-27 -1.977e-23  4.446e-28
  ibd      459.8804f -560.1196f    1.0100p  -40.2049a    1.5168a    1.5168a
  vgs        0.         0.         0.       550.1196m -999.9711m    0.     
  vds     -449.8804m  550.1196m -999.9711m   28.9450u   -1.0919u   -1.0919u
  vbs        0.         0.         0.         0.         0.         0.     
  vth     -419.3721m  396.9126m -335.9501m  466.7785m -487.5969m -487.5969m
  vdsat    -44.9226m   39.7196m  -44.5133m   95.5256m -385.7171m  -45.2090m
  vod      419.3721m -396.9126m  335.9501m   83.3411m -512.3742m  487.5969m
  beta       3.4739m    1.6891m    3.9938m    1.3927m    2.9753m    3.1271m
  gam eff  400.0000m  400.0000m  400.0000m  400.0000m  400.0000m  400.0000m
  gm         2.9919n    3.5483n   42.1143n   14.5477n  933.2374p   13.2154f
  gds      500.0947p  490.4061p    7.9859n   79.4332u  897.8072u  428.9340p
  gmb      745.2813p  935.9986p   10.0059n    3.4964n  319.0898p    3.4568f
  cdtot    259.9783a   29.2905a  235.4259a   48.1939a  540.3432a  321.9615a
  cgtot    282.3616a   28.4620a  273.7407a   47.9179a  524.8194a  323.7808a
  cstot    429.7458a   50.1903a  429.7464a   56.8878a  479.9924a  429.7457a
  cbtot    485.6361a   59.7441a  469.7053a   62.3917a  502.0685a  506.2001a
  cgs      142.3231a   14.2624a  142.3239a   27.1041a  298.7097a  142.3230a
  cgd      100.9024a    9.8370a   92.2808a   19.4008a  225.3263a  142.3216a



 subckt   x3.xnand   x3.xnand   x3.xinvert x3.xinvert x4.xnand   x4.xnand  
 element  5:mn1      5:mn2      6:mp1      6:mn1      7:mp1      7:mp2     
 model    0:nmos     0:nmos     0:pmos     0:nmos     0:pmos     0:pmos    
 region       Linear     Cutoff     Cutoff     Linear   Saturati     Cutoff
  id       708.5906p  702.2664p   -1.5094n    1.7726n   -7.1254u  -78.0341p
  ibs      5.271e-24  9.471e-25 -9.480e-25  5.271e-24 -4.013e-25 -3.699e-25
  ibd       -5.3985a   -1.0100p    1.0100p  -13.5048a  394.3234f  394.3234f
  vgs        1.0000    25.0590u    0.       999.9989m -449.8804m    0.     
  vds        3.8861u  999.9950m -999.9903m    9.7216u -384.3234m -384.3234m
  vbs        0.         0.         0.         0.         0.         0.     
  vth      466.7817m  339.7752m -335.9472m  466.7810m -429.3139m -429.3139m
  vdsat    327.0675m   39.1436m  -44.5132m  327.0673m  -80.0127m  -44.9670m
  vod      533.2183m -339.7501m  335.9472m  533.2179m  -20.5665m  429.3139m
  beta       1.0028m    1.8693m    3.9938m    1.0028m    3.5469m    3.4195m
  gam eff  400.0000m  400.0000m  400.0000m  400.0000m  400.0000m  400.0000m
  gm       317.4681p   18.6938n   42.1186n  794.2171p  128.9743u    2.1975n
  gds      182.3408u    2.6307n    7.9868n  182.3382u   22.4822u  368.8455p
  gmb      147.3389p    4.7495n   10.0069n  368.5944p   26.0522u  550.5148p
  cdtot     60.1245a   27.1512a  235.4253a   60.1240a  310.3165a  264.9674a
  cgtot     53.2235a   27.8836a  273.7406a   53.2235a  388.3724a  284.9204a
  cstot     54.5952a   50.1907a  429.7464a   54.5956a  488.2059a  429.7458a
  cbtot     62.4129a   58.1836a  469.7049a   62.4129a  480.0993a  488.0664a
  cgs       29.5143a   14.2629a  142.3239a   29.5145a  218.8382a  142.3231a
  cgd       23.3522a    9.2581a   92.2806a   23.3520a  145.6963a  103.4612a



 subckt   x4.xnand   x4.xnand   x4.xinvert x4.xinvert
 element  7:mn1      7:mn2      8:mp1      8:mn1     
 model    0:nmos     0:nmos     0:pmos     0:nmos    
 region       Linear   Saturati     Cutoff     Linear
  id         7.1255u    7.1255u   -1.5094n    1.7678n
  ibs      5.726e-24  5.949e-25 -9.480e-25  3.598e-27
  ibd      -49.0356f -584.6182f    1.0100p  -22.4739a
  vgs        1.0000   509.0612m    0.       615.6766m
  vds       41.0583m  574.6182m -999.9838m   16.1787u
  vbs        0.         0.         0.         0.     
  vth      461.5674m  393.8010m -335.9481m  466.7801m
  vdsat    329.3131m  108.1181m  -44.5133m  127.6727m
  vod      538.4326m  115.2602m  335.9481m  148.8964m
  beta       1.0074m    1.5529m    3.9938m    1.3348m
  gam eff  400.0000m  400.0000m  400.0000m  400.0000m
  gm         3.8134u   64.8926u   42.1172n    6.4685n
  gds      164.8599u    9.5241u    7.9865n  109.2600u
  gmb        1.5884u   14.2183u   10.0065n    1.6737n
  cdtot     55.2120a   32.1953a  235.4255a   52.3132a
  cgtot     53.0273a   44.1638a  273.7406a   50.2850a
  cstot     57.2849a   60.6598a  429.7464a   56.5426a
  cbtot     61.9834a   58.6985a  469.7050a   62.4391a
  cgs       31.1338a   30.6534a  142.3239a   28.6362a
  cgd       21.4916a   12.0406a   92.2807a   20.7027a



 ******  
 * seudo                                                                        
  ******  transient analysis               tnom=  25.000 temp=  25.000          
 ******  

**warning** measure results may be incorrect
       since initial start time is non-zero.
   avgpower=  1.1242E-07  from=  1.0000E-09     to=  2.0000E-07
   tphl= failed       targ= not found    trig=  5.0005E-09
   tplh= failed       targ= not found    trig=  2.0015E-09

          ***** job concluded
1****** HSPICE -- A-2008.03 32-BIT (Feb 26 2008) winnt ******                   
 ******  
 * seudo                                                                        
  ******  job statistics summary           tnom=  25.000 temp=  25.000          
 ******  

           total memory used        207 kbytes

  # nodes =      76 # elements=      19
  # diodes=       0 # bjts    =       0 # jfets   =       0 # mosfets =      16
  # va device =       0

    analysis           time    # points   tot. iter  conv.iter

    op point           0.08           1         243
    transient          0.45        1991        2984        1407 rev=        81
    readin             0.02
    errchk             0.01
    setup              0.02
    output             0.00
           total cpu time          0.72 seconds
           total elapsed time         1 seconds
               job started at  15:48:25 11/14/2018
               job ended   at  15:48:26 11/14/2018


 Init: hspice initialization file: C:\synopsys\Hspice_A-2008.03\hspice.ini
