 ****** HSPICE -- A-2008.03 32-BIT (Feb 26 2008) winnt ******                   
  Copyright (C) 2008 Synopsys, Inc. All Rights Reserved.                        
  Unpublished-rights reserved under US copyright laws.
  This program is protected by law and is subject to the 
  terms and conditions of the license agreement found in:
    C:\synopsys\Hspice_A-2008.03\license.warn
  Use of this program is your acceptance to be bound by this 
  license agreement. HSPICE is the trademark of Synopsys, Inc.
  Input File: c:\users\mehrdad\desktop\ca\ca3\seudo\seudo.sp                    
 Init: read install configuration file: C:\synopsys\Hspice_A-2008.03\meta.cfg
 Init: hspice initialization file: C:\synopsys\Hspice_A-2008.03\hspice.ini
 **warning** (c:\users\mehrdad\desktop\ca\ca3\seudo\seudo.sp:8) symbol: + is ignored 





 ***** params *****
 .param  +vdd = 1v
 +gnd = 0v
 +lmin = 45n
 +wp = 1
 +wn = 2

 ***** temperature *****
 .temp	25

 ***** sources *****
 *v      n+  n-  pulse   v1  v2  td  tr  tf  pw  per
 vsupply	vm	0	dc	vdd
 vgnd	vg	0	dc	gnd
 vina    a	0	pulse  gnd  vdd 0  1p 1p 2000p 5000p
 vinx    x	0	dc	gnd

 ***** component *****
 x1      vm      vg      x       w1      inverterseudo
 x2      vm      vg      w1      w2      inverterseudo
 x3      vm      vg      w2      a       y1      andseudo
 x4      vm      vg      w1      a       y2      andseudo

 ***** nand
 .subckt nandseudo       vdd     gnd     a       b       out
 mp1		out	  	gnd   	vdd	    vdd		pmos	l='lmin'	w='lmin*wp'
 mn1	    2	   	b   	gnd  	gnd     nmos	l='lmin'	w='lmin*wn'
 mn2	    out	   	a   	2  		2     	nmos	l='lmin'	w='lmin*wn'
 .ends nandseudo

 ***** inverter
 .subckt inverterseudo	vdd     gnd     a 		out
 mp1		out	  	gnd   	vdd	    vdd		pmos	l='lmin'	w='lmin*wp'
 mn1	    out	   	a   	gnd  	gnd     nmos	l='lmin'	w='lmin*wn'
 .ends inverterseudo

 ***** and
 .subckt andseudo    vdd     gnd     a       b       out
 xnand      vdd      gnd     a       b       wire     nandseudo
 xinverter  vdd      gnd     wire    out     inverterseudo
 .ends andseudo

 ***** type of analysis *****
 ***** transient analysis:
 .tran	0.1ns     200ns   1ns
 ***** power :
 .meas tran avgpower avg  power

 ***** propagation delay :
 .measure tran tphl
 + trig v(a) val = 'vdd/2'  rise = 1
 + targ v(y2) val = 'vdd/2'  fall = 2

 .measure tran tplh
 + trig v(a) val = 'vdd/2'  fall = 1
 + targ v(y2) val = 'vdd/2'  rise = 1

 .op
 .end

 ***********************************************************************
 ** runlvl is invoked, you can disable it by:
      a) Add option runlvl=0 to your current simulation job.
      b) Copy $installdir/hspice.ini to your HOME directory and
         customize it by adding option runlvl=0, which disables
         it for all of your simulation jobs.
      c) Re-invoke $installdir/bin/config program and unselect the
         option runlvl setting in box 'hspice.ini' which disables
         it for whole group simulation jobs.

 ** runlvl is invoked, some options are ignored or automatically set:
      Options below are automatically set(user setting will overwrite them):
      if runlvl=6,            .option bypass=0
      if runlvl=[1|2|3|4|5],  .option bypass=2

      Options below are ignored, they are replaced by automated algorithms:
        lvltim    dvdt      ft    fast   trtol  absvar  relvar
          relq  chgtol    dvtr    imin    itl3    rmax

 ** runlvl is invoked, actual option value used by HSPICE are:
       runlvl= 3       bypass= 2      mbypass=   2.00   bytol= 100.00u
 ***********************************************************************

1****** HSPICE -- A-2008.03 32-BIT (Feb 26 2008) winnt ******                   
 ******  
 * seudo                                                                        
  ******  circuit name directory                                                
 ******  
 circuit number to circuit name directory
   number circuitname                     definition         multiplier
        0 main circuit
        1 x1.                             inverterseudo      1.00 
        2 x2.                             inverterseudo      1.00 
        3 x3.                             andseudo           1.00 
        4 x4.                             andseudo           1.00 
        5 x3.xnand.                       nandseudo          1.00 
        6 x3.xinverter.                   inverterseudo      1.00 
        7 x4.xnand.                       nandseudo          1.00 
        8 x4.xinverter.                   inverterseudo      1.00 

 **warning** recommend to set start explicitly:
             .TRAN tstep tstop START=val



 **warning** dc voltage reset to initial transient source value
             in source        0:vina                new dc=  0.0000D+00

 ** warning** associated with encrypted blocks were suppressed

 
      
  Opening plot unit= 79
 file=c:\users\mehrdad\desktop\ca\ca3\seudo\seudo.pa0                          

1****** HSPICE -- A-2008.03 32-BIT (Feb 26 2008) winnt ******                   
 ******  
 * seudo                                                                        
  ******  operating point information      tnom=  25.000 temp=  25.000          
 ******  
 ***** operating point status is all       simulation time is     0.     
    node    =voltage      node    =voltage      node    =voltage

 +0:a       =   0.      0:vg      =   0.      0:vm      =   1.0000 
 +0:w1      = 999.9828m 0:w2      = 101.8536m 0:x       =   0.     
 +0:y1      = 101.8525m 0:y2      = 101.8532m 3:wire    = 999.9985m
 +4:wire    = 999.9884m 5:2       = 188.5366m 7:2       = 890.5360m


 ****  voltage sources

 subckt                                              
 element  0:vsupply  0:vgnd     0:vina     0:vinx    
  volts      1.0000     0.         0.         0.     
  current -103.9685u  103.9685u    8.1365p   12.8003p
  power    103.9685u    0.         0.         0.     

     total voltage source power dissipation=  103.9685u       watts




 **** mosfets


 subckt   x1         x1         x2         x2         x3.xnand   x3.xnand  
 element  1:mp1      1:mn1      2:mp1      2:mn1      5:mp1      5:mn1     
 model    0:pmos     0:nmos     0:pmos     0:nmos     0:pmos     0:nmos    
 region       Linear     Cutoff   Saturati     Linear     Linear     Cutoff
  id        -1.6751n    1.6056n  -34.6551u   34.6551u -142.5574p   78.1387p
  ibs     -1.976e-24  9.475e-25 -1.461e-23  1.460e-23 -1.976e-24  1.862e-25
  ibd       23.8669a   -1.0100p  908.1464f -111.6639f    2.0312a -198.5301f
  vgs       -1.0000     0.        -1.0000   999.9828m   -1.0000     0.     
  vds      -17.1816u  999.9828m -898.1464m  101.8536m   -1.4622u  188.5366m
  vbs        0.         0.         0.         0.         0.         0.     
  vth     -487.5945m  339.7767m -351.3919m  453.8459m -487.5968m  442.8364m
  vdsat   -379.4425m   39.3010m -443.1318m  342.1186m -379.4414m   40.2940m
  vod     -512.4055m -339.7767m -648.6081m  546.1369m -512.4032m -442.8364m
  beta     297.5241u    4.2726m  329.9922u    2.3183m  297.5236u    3.5579m
  gam eff  400.0000m  400.0000m  400.0000m  400.0000m  400.0000m  400.0000m
  gm         1.7267n   42.7384n   63.8781u   21.6911u  146.9410p    2.1037n
  gds       97.4950u    6.0148n   16.2210u  299.6937u   97.4981u  299.4454p
  gmb      591.4088p   10.8592n   14.2979u    7.9301u   50.3294p  571.4465p
  cdtot     58.5241a   56.9477a   32.9906a   99.2199a   58.5256a   69.3178a
  cgtot     52.8852a   63.1572a   49.9764a  119.3733a   52.8853a   68.8694a
  cstot     55.1857a  104.4557a   63.0711a  128.9201a   55.1848a  104.4554a
  cbtot     62.2865a  117.0379a   57.2575a  122.8740a   62.2866a  123.6955a
  cgs       29.8716a   32.6002a   35.7374a   76.9523a   29.8711a   32.5998a
  cgd       22.5321a   21.1615a   13.4618a   41.8078a   22.5327a   26.8740a



 subckt   x3.xnand   x3.xinvert x3.xinvert x4.xnand   x4.xnand   x4.xnand  
 element  5:mn2      6:mp1      6:mn1      7:mp1      7:mn1      7:mn2     
 model    0:nmos     0:pmos     0:nmos     0:pmos     0:nmos     0:nmos    
 region       Cutoff   Saturati     Linear     Linear     Cutoff     Cutoff
  id        77.6572p  -34.6551u   34.6551u   -1.1321n    1.0674n    1.0762n
  ibs      7.703e-25 -1.461e-23  1.460e-23 -1.976e-24  8.445e-25  1.119e-25
  ibd     -821.4619f  908.1475f -111.6627f   16.1304a -900.5360f -119.3112f
  vgs      -86.6830m   -1.0000   999.9985m   -1.0000     0.       109.4469m
  vds      811.4619m -898.1475m  101.8525m  -11.6118u  890.5360m  109.4524m
  vbs        0.         0.         0.         0.         0.         0.     
  vth      363.7202m -351.3918m  453.8461m -487.5953m  353.6772m  452.8808m
  vdsat     39.5280m -443.1319m  342.1269m -379.4421m   39.4358m   40.3982m
  vod     -450.4032m -648.6082m  546.1525m -512.4047m -353.6772m -343.4339m
  beta       4.0954m  329.9922u    2.3182m  297.5239u    4.1689m    3.4950m
  gam eff  400.0000m  400.0000m  400.0000m  400.0000m  400.0000m  400.0000m
  gm         2.0915n   63.8781u   21.6898u    1.1669n   28.4855n   28.6690n
  gds      289.6929p   16.2210u  299.6987u   97.4961u    3.9668n    4.4838n
  gmb      570.1584p   14.2979u    7.9298u  399.6921p    7.3048n    7.3155n
  cdtot     58.3121a   32.9906a   99.2212a   58.5246a   57.8125a   76.0100a
  cgtot     61.0602a   49.9764a  119.3735a   52.8852a   63.3546a   77.0862a
  cstot    101.6019a   63.0711a  128.9197a   55.1854a  104.4556a  107.5459a
  cbtot    118.7947a   57.2575a  122.8741a   62.2865a  117.7052a  124.0635a
  cgs       29.7462a   35.7374a   76.9521a   29.8714a   32.6000a   35.6903a
  cgd       21.3437a   13.4618a   41.8082a   22.5323a   21.3590a   32.5992a



 subckt   x4.xinvert x4.xinvert
 element  8:mp1      8:mn1     
 model    0:pmos     0:nmos    
 region     Saturati     Linear
  id       -34.6551u   34.6551u
  ibs     -1.461e-23  1.460e-23
  ibd      908.1468f -111.6634f
  vgs       -1.0000   999.9884m
  vds     -898.1468m  101.8532m
  vbs        0.         0.     
  vth     -351.3919m  453.8460m
  vdsat   -443.1318m  342.1215m
  vod     -648.6081m  546.1424m
  beta     329.9922u    2.3182m
  gam eff  400.0000m  400.0000m
  gm        63.8781u   21.6906u
  gds       16.2210u  299.6955u
  gmb       14.2979u    7.9300u
  cdtot     32.9906a   99.2204a
  cgtot     49.9764a  119.3734a
  cstot     63.0711a  128.9199a
  cbtot     57.2575a  122.8741a
  cgs       35.7374a   76.9522a
  cgd       13.4618a   41.8079a



 ******  
 * seudo                                                                        
  ******  transient analysis               tnom=  25.000 temp=  25.000          
 ******  

**warning** measure results may be incorrect
       since initial start time is non-zero.
   avgpower=  1.0351E-04  from=  1.0000E-09     to=  2.0000E-07
   tphl=  2.0078E-09  targ=  7.0083E-09   trig=  5.0005E-09
   tplh=  3.0048E-09  targ=  5.0063E-09   trig=  2.0015E-09

          ***** job concluded
1****** HSPICE -- A-2008.03 32-BIT (Feb 26 2008) winnt ******                   
 ******  
 * seudo                                                                        
  ******  job statistics summary           tnom=  25.000 temp=  25.000          
 ******  

           total memory used        206 kbytes

  # nodes =      69 # elements=      18
  # diodes=       0 # bjts    =       0 # jfets   =       0 # mosfets =      14
  # va device =       0

    analysis           time    # points   tot. iter  conv.iter

    op point           0.03           1          25
    transient          0.57        1991        6277        2319 rev=       159
    readin             0.01
    errchk             0.01
    setup              0.02
    output             0.00
           total cpu time          0.69 seconds
           total elapsed time         1 seconds
               job started at  10:53:35 11/23/2018
               job ended   at  10:53:36 11/23/2018


 Init: hspice initialization file: C:\synopsys\Hspice_A-2008.03\hspice.ini
