 ****** HSPICE -- A-2008.03 32-BIT (Feb 26 2008) winnt ******                   
  Copyright (C) 2008 Synopsys, Inc. All Rights Reserved.                        
  Unpublished-rights reserved under US copyright laws.
  This program is protected by law and is subject to the 
  terms and conditions of the license agreement found in:
    C:\synopsys\Hspice_A-2008.03\license.warn
  Use of this program is your acceptance to be bound by this 
  license agreement. HSPICE is the trademark of Synopsys, Inc.
  Input File: c:\users\mehrdad\desktop\ca\ca3\dynamic\dynamic.sp                
 Init: read install configuration file: C:\synopsys\Hspice_A-2008.03\meta.cfg
 Init: hspice initialization file: C:\synopsys\Hspice_A-2008.03\hspice.ini
 **warning** (c:\users\mehrdad\desktop\ca\ca3\dynamic\dynamic.sp:8) symbol: + is ignored 





 ***** params *****
 .param  +vdd = 1v
 +gnd = 0v
 +lmin = 45n
 +wp = 2
 +wn = 8

 ***** temperature *****
 .temp	25

 ***** sources *****
 *v      n+  n-  pulse   v1  v2  td  tr   tf   pw   per
 vsupply	vm	0	dc	vdd
 vgnd	vg	0	dc	gnd
 vinclk  clk	0	pulse  gnd  vdd 0  1p 1p 5000p 9000p
 vina    a	0	pulse  gnd  vdd 0  1p 1p 2200p 5000p
 vinx    x	0	dc	gnd
 *pulse  gnd  vdd 0  1p 1p 2200p 5000p

 ***** component *****
 x1      clk     vm      vg      x       w1      inverterdynamic_u
 x2      clk     vm      vg      w1      w2      inverterdynamic_d
 x3      clk     vm      vg      w2      a       y1      anddynamic
 x4      clk     vm      vg      w1      a       y2      anddynamic

 ***** nand
 .subckt nanddynamic     clk     vdd     gnd    a       b       out
 mp1		out	  	clk   	vdd	    vdd		pmos	l='lmin'	w='lmin*wp'
 mn1	    2	   	b   	gnd  	gnd     nmos	l='lmin'	w='lmin*wn'
 mn2	    out	   	a   	2  		2     	nmos	l='lmin'	w='lmin*wn'
 cl		out		0       5ff
 .ends nanddynamic

 ***** inverter
 .subckt inverterdynamic_u	clk     vdd     gnd     a 		out
 mp1		out	  	clk   	vdd	    vdd		pmos	l='lmin'	w='lmin*wp'
 mn1	    out	   	a   	gnd  	gnd     nmos	l='lmin'	w='lmin*wn'
 cl		out		0       5ff
 .ends inverterdynamic_u

 .subckt inverterdynamic_d	clk     vdd     gnd     a 		out
 mp1		out	  	a   	vdd	    vdd		pmos	l='lmin'	w='lmin*wp'
 mn1	    out	   	clk   	gnd  	gnd     nmos	l='lmin'	w='lmin*wn'
 cl		out		0       5ff
 .ends inverterdynamic_d
 ***** and
 .subckt anddynamic  clk     vdd     gnd     a       b       out
 xnand       clk     vdd     gnd     a       b       wire    nanddynamic
 xinverter   clk     vdd     gnd     wire    out     inverterdynamic_d
 .ends anddynamic

 ***** type of analysis *****
 ***** transient analysis:
 .tran	0.1ns     200ns   1ns

 ***** power :
 .meas tran avgpower avg  power

 ***** propagation delay :
 .measure tran tphl
 + trig v(a) val = 'vdd/2'  rise = 1
 + targ v(y2) val = 'vdd/2'  fall = 1

 .measure tran tplh
 + trig v(a) val = 'vdd/2'  fall = 1
 + targ v(y2) val = 'vdd/2'  rise = 1

 .op
 .end

 ***********************************************************************
 ** runlvl is invoked, you can disable it by:
      a) Add option runlvl=0 to your current simulation job.
      b) Copy $installdir/hspice.ini to your HOME directory and
         customize it by adding option runlvl=0, which disables
         it for all of your simulation jobs.
      c) Re-invoke $installdir/bin/config program and unselect the
         option runlvl setting in box 'hspice.ini' which disables
         it for whole group simulation jobs.

 ** runlvl is invoked, some options are ignored or automatically set:
      Options below are automatically set(user setting will overwrite them):
      if runlvl=6,            .option bypass=0
      if runlvl=[1|2|3|4|5],  .option bypass=2

      Options below are ignored, they are replaced by automated algorithms:
        lvltim    dvdt      ft    fast   trtol  absvar  relvar
          relq  chgtol    dvtr    imin    itl3    rmax

 ** runlvl is invoked, actual option value used by HSPICE are:
       runlvl= 3       bypass= 2      mbypass=   2.00   bytol= 100.00u
 ***********************************************************************

1****** HSPICE -- A-2008.03 32-BIT (Feb 26 2008) winnt ******                   
 ******  
 * dynamic                                                                      
  ******  circuit name directory                                                
 ******  
 circuit number to circuit name directory
   number circuitname                     definition         multiplier
        0 main circuit
        1 x1.                             inverterdynamic_u
                                                                 1.00 
        2 x2.                             inverterdynamic_d
                                                                 1.00 
        3 x3.                             anddynamic         1.00 
        4 x4.                             anddynamic         1.00 
        5 x3.xnand.                       nanddynamic        1.00 
        6 x3.xinverter.                   inverterdynamic_d
                                                                 1.00 
        7 x4.xnand.                       nanddynamic        1.00 
        8 x4.xinverter.                   inverterdynamic_d
                                                                 1.00 

 **warning** recommend to set start explicitly:
             .TRAN tstep tstop START=val



 **warning** dc voltage reset to initial transient source value
             in source        0:vinclk              new dc=  0.0000D+00


 **warning** dc voltage reset to initial transient source value
             in source        0:vina                new dc=  0.0000D+00

 ** warning** associated with encrypted blocks were suppressed

 
      
  Opening plot unit= 79
 file=c:\users\mehrdad\desktop\ca\ca3\dynamic\dynamic.pa0                      

1****** HSPICE -- A-2008.03 32-BIT (Feb 26 2008) winnt ******                   
 ******  
 * dynamic                                                                      
  ******  operating point information      tnom=  25.000 temp=  25.000          
 ******  
 ***** operating point status is all       simulation time is     0.     
    node    =voltage      node    =voltage      node    =voltage

 +0:a       =   0.      0:clk     =   0.      0:vg      =   0.     
 +0:vm      =   1.0000  0:w1      = 999.9662m 0:w2      = 118.4038m
 +0:x       =   0.      0:y1      = 102.8241m 0:y2      = 102.8746m
 +3:wire    = 999.9977m 4:wire    = 999.9774m 5:2       = 201.2758m
 +7:2       = 890.5415m


 ****  voltage sources

 subckt                                                         
 element  0:vsupply  0:vgnd     0:vinclk   0:vina     0:vinx    
  volts      1.0000     0.         0.         0.         0.     
  current  -13.2629n   12.8096n  361.5927p   35.6666p   55.9974p
  power     13.2629n    0.         0.         0.         0.     

     total voltage source power dissipation=   13.2629n       watts




 **** mosfets


 subckt   x1         x1         x2         x2         x3.xnand   x3.xnand  
 element  1:mp1      1:mn1      2:mp1      2:mn1      5:mp1      5:mn1     
 model    0:pmos     0:nmos     0:pmos     0:nmos     0:pmos     0:nmos    
 region       Linear     Cutoff     Cutoff     Cutoff     Linear     Cutoff
  id        -7.1816n    7.0285n -188.1822p  259.7159p -492.2558p  359.1543p
  ibs     -4.517e-24  9.494e-25 -8.365e-25  1.204e-25 -4.516e-24  1.983e-25
  ibd       46.9602a   -1.0100p  891.5962f -128.3041f    3.2193a -211.2718f
  vgs       -1.0000     0.       -33.8093u    0.        -1.0000     0.     
  vds      -33.8093u  999.9662m -881.5962m  118.4038m   -2.3173u  201.2758m
  vbs        0.         0.         0.         0.         0.         0.     
  vth     -487.5919m  339.7788m -353.9018m  451.7439m -487.5967m  441.2185m
  vdsat   -383.1180m   39.4148m  -44.5912m   40.4632m -383.1156m   40.3668m
  vod     -512.4081m -339.7788m  353.8680m -451.7439m -512.4033m -441.2185m
  beta     680.0565u   18.6926m  884.8817u   15.3218m  680.0540u   15.6108m
  gam eff  400.0000m  400.0000m  400.0000m  400.0000m  400.0000m  400.0000m
  gm         7.0680n  187.0926n    5.2653n    6.9954n  484.4403p    9.6686n
  gds      212.4088u   26.3315n  933.7041p    1.0660n  212.4217u    1.3700n
  gmb        2.4184n   47.5391n    1.2635n    1.9110n  165.7645p    2.6238n
  cdtot    127.3500a  235.7268a   57.8190a  299.0226a  127.3568a  285.4656a
  cgtot    120.3044a  274.8011a   63.1316a  308.0533a  120.3046a  298.4998a
  cstot    115.8758a  430.0479a  104.3879a  430.0466a  115.8717a  430.0466a
  cbtot    125.1118a  470.1633a  117.6571a  500.2053a  125.1126a  496.2019a
  cgs       68.2792a  142.6259a   32.5322a  142.6239a   68.2768a  142.6239a
  cgd       51.5006a   92.5815a   21.3086a  125.8354a   51.5033a  116.2818a



 subckt   x3.xnand   x3.xinvert x3.xinvert x4.xnand   x4.xnand   x4.xnand  
 element  5:mn2      6:mp1      6:mn1      7:mp1      7:mn1      7:mn2     
 model    0:nmos     0:pmos     0:nmos     0:pmos     0:nmos     0:nmos    
 region       Cutoff     Cutoff     Cutoff     Linear     Cutoff     Cutoff
  id       359.2356p -203.1837p  243.2966p   -4.8075n    4.6731n    4.7090n
  ibs      7.590e-25 -8.510e-25  1.057e-25 -4.517e-24  8.452e-25  1.123e-25
  ibd     -808.7219f  907.1759f -112.6413f   31.4376a -900.5415f -119.2946f
  vgs      -82.8720m   -2.3173u    0.        -1.0000     0.       109.4247m
  vds      798.7219m -897.1759m  102.8241m  -22.6324u  890.5415m  109.4359m
  vbs        0.         0.         0.         0.         0.         0.     
  vth      365.3382m -351.5391m  453.7227m -487.5936m  353.6765m  452.8829m
  vdsat     39.6509m  -44.5790m   40.4812m -383.1171m   39.5458m   40.4837m
  vod     -448.2103m  351.5368m -453.7227m -512.4064m -353.6765m -343.4582m
  beta      17.8659m  888.4816u   15.2681m  680.0556u   18.2389m   15.2906m
  gam eff  400.0000m  400.0000m  400.0000m  400.0000m  400.0000m  400.0000m
  gm         9.6742n    5.6832n    6.5537n    4.7313n  124.7073n  125.4405n
  gds        1.3393n    1.0155n    1.0457n  212.4134u   17.3669n   19.6089n
  gmb        2.6338n    1.3621n    1.7926n    1.6189n   31.9808n   32.0105n
  cdtot    241.7423a   57.6885a  301.8963a  127.3525a  239.2596a  316.2647a
  cgtot    266.1879a   63.0990a  310.1306a  120.3045a  275.6644a  335.7377a
  cstot    418.0969a  104.3869a  430.0466a  115.8743a  430.0474a  443.5649a
  cbtot    477.6282a  117.5586a  501.0017a  125.1121a  472.8322a  498.0423a
  cgs      130.6743a   32.5312a  142.6239a   68.2783a  142.6252a  156.1428a
  cgd       93.5258a   21.2768a  127.9126a   51.5015a   93.4454a  142.6208a



 subckt   x4.xinvert x4.xinvert
 element  8:mp1      8:mn1     
 model    0:pmos     0:nmos    
 region       Cutoff     Cutoff
  id      -203.2478p  243.3495p
  ibs     -8.508e-25  1.058e-25
  ibd      907.1254f -112.6922f
  vgs      -22.6324u    0.     
  vds     -897.1254m  102.8746m
  vbs        0.         0.     
  vth     -351.5468m  453.7162m
  vdsat    -44.5790m   40.4812m
  vod      351.5241m -453.7162m
  beta     888.4699u   15.2682m
  gam eff  400.0000m  400.0000m
  gm         5.6850n    6.5551n
  gds        1.0158n    1.0457n
  gmb        1.3625n    1.7930n
  cdtot     57.6889a  301.8868a
  cgtot     63.0997a  310.1237a
  cstot    104.3875a  430.0466a
  cbtot    117.5588a  500.9991a
  cgs       32.5318a  142.6239a
  cgd       21.2770a  127.9058a



 ******  
 * dynamic                                                                      
  ******  transient analysis               tnom=  25.000 temp=  25.000          
 ******  

**warning** measure results may be incorrect
       since initial start time is non-zero.
   avgpower=  5.5416E-05  from=  1.0000E-09     to=  2.0000E-07
   tphl=  4.0070E-09  targ=  9.0075E-09   trig=  5.0005E-09
   tplh=  2.8436E-09  targ=  5.0451E-09   trig=  2.2015E-09

          ***** job concluded
1****** HSPICE -- A-2008.03 32-BIT (Feb 26 2008) winnt ******                   
 ******  
 * dynamic                                                                      
  ******  job statistics summary           tnom=  25.000 temp=  25.000          
 ******  

           total memory used        210 kbytes

  # nodes =      70 # elements=      25
  # diodes=       0 # bjts    =       0 # jfets   =       0 # mosfets =      14
  # va device =       0

    analysis           time    # points   tot. iter  conv.iter

    op point           0.09           1          26
    transient          0.60        1991        7156        2800 rev=       217
    readin             0.02
    errchk             0.01
    setup              0.01
    output             0.00
           total cpu time          0.74 seconds
           total elapsed time         1 seconds
               job started at  07:13:13 11/21/2018
               job ended   at  07:13:14 11/21/2018


 Init: hspice initialization file: C:\synopsys\Hspice_A-2008.03\hspice.ini
