 ****** HSPICE -- A-2008.03 32-BIT (Feb 26 2008) winnt ******                   
  Copyright (C) 2008 Synopsys, Inc. All Rights Reserved.                        
  Unpublished-rights reserved under US copyright laws.
  This program is protected by law and is subject to the 
  terms and conditions of the license agreement found in:
    C:\synopsys\Hspice_A-2008.03\license.warn
  Use of this program is your acceptance to be bound by this 
  license agreement. HSPICE is the trademark of Synopsys, Inc.
  Input File: c:\users\mehrdad\desktop\ca\ca3\dynamic\dynamic.sp                
 Init: read install configuration file: C:\synopsys\Hspice_A-2008.03\meta.cfg
 Init: hspice initialization file: C:\synopsys\Hspice_A-2008.03\hspice.ini
 **warning** (c:\users\mehrdad\desktop\ca\ca3\dynamic\dynamic.sp:8) symbol: + is ignored 





 ***** params *****
 .param  +vdd = 1v
 +gnd = 0v
 +lmin = 45n
 +wp = 2
 +wn = 8

 ***** temperature *****
 .temp	25

 ***** sources *****
 *v      n+  n-  pulse   v1  v2  td  tr   tf   pw   per

 vsupply	vm	0	dc	vdd
 vina    a	0	dc  vdd
 vinx    x	0	pulse  gnd  vdd 0  1p 1p 2000p 5000p
 vinclk  clk	0	pulse  gnd  vdd 0  1p 1p 5000p 9000p
 ***** component *****
 *m   	nd		ng 		ns		nb		model name		w
 x1      clk     vm      x       w1      inverterdynamic
 x2      clk     vm      w1      w2      inverterdynamic
 x3      clk     vm      w2      a       y1      anddynamic
 x4      clk     vm      w1      a       y2      anddynamic

 ***** nand
 .subckt nanddynamic     clk     vdd     a       b       out
 mp1		out	  	clk   	vdd	    vdd		pmos	l='lmin'	w='lmin*wp'
 mn1	    2	   	b   	gnd  	gnd     nmos	l='lmin'	w='lmin*wn'
 mn2	    out	   	a   	2  		2     	nmos	l='lmin'	w='lmin*wn'
 cl		out		0       5ff
 .ends nanddynamic

 ***** inverter
 .subckt inverterdynamic	clk     vdd     a 		out
 mp1		out	  	clk   	vdd	    vdd		pmos	l='lmin'	w='lmin*wp'
 mn1	    out	   	a   	gnd  	gnd     nmos	l='lmin'	w='lmin*wn'
 cl		out		0       5ff
 .ends inverterdynamic

 ***** and
 .subckt anddynamic  clk     vdd     a       b       out
 xnand       clk     vdd     a       b       wire    nanddynamic
 xinverter   clk     vdd     wire    out     inverterdynamic
 .ends anddynamic

 ***** type of analysis *****
 ***** transient analysis:
 .tran	0.1ns     200ns   1ns
 *.tran	0.1ns	6u
 ***** power :
 *.meas		tran	avgpower avg	power	from=0		to=6u
 .meas tran avgpower avg  power

 ***** propagation delay :
 .measure tran tphl
 + trig v(x) val = 'vdd/2'  rise = 1
 + targ v(y1) val = 'vdd/2'  fall = 1

 .measure tran tplh
 + trig v(x) val = 'vdd/2'  fall = 1
 + targ v(y1) val = 'vdd/2'  rise = 1

 .op
 .end

 ***********************************************************************
 ** runlvl is invoked, you can disable it by:
      a) Add option runlvl=0 to your current simulation job.
      b) Copy $installdir/hspice.ini to your HOME directory and
         customize it by adding option runlvl=0, which disables
         it for all of your simulation jobs.
      c) Re-invoke $installdir/bin/config program and unselect the
         option runlvl setting in box 'hspice.ini' which disables
         it for whole group simulation jobs.

 ** runlvl is invoked, some options are ignored or automatically set:
      Options below are automatically set(user setting will overwrite them):
      if runlvl=6,            .option bypass=0
      if runlvl=[1|2|3|4|5],  .option bypass=2

      Options below are ignored, they are replaced by automated algorithms:
        lvltim    dvdt      ft    fast   trtol  absvar  relvar
          relq  chgtol    dvtr    imin    itl3    rmax

 ** runlvl is invoked, actual option value used by HSPICE are:
       runlvl= 3       bypass= 2      mbypass=   2.00   bytol= 100.00u
 ***********************************************************************

1****** HSPICE -- A-2008.03 32-BIT (Feb 26 2008) winnt ******                   
 ******  
 * dynamic                                                                      
  ******  circuit name directory                                                
 ******  
 circuit number to circuit name directory
   number circuitname                     definition         multiplier
        0 main circuit
        1 x1.                             inverterdynamic    1.00 
        2 x2.                             inverterdynamic    1.00 
        3 x3.                             anddynamic         1.00 
        4 x4.                             anddynamic         1.00 
        5 x3.xnand.                       nanddynamic        1.00 
        6 x3.xinverter.                   inverterdynamic    1.00 
        7 x4.xnand.                       nanddynamic        1.00 
        8 x4.xinverter.                   inverterdynamic    1.00 

 **warning** recommend to set start explicitly:
             .TRAN tstep tstop START=val



 **warning** dc voltage reset to initial transient source value
             in source        0:vinx                new dc=  0.0000D+00


 **warning** dc voltage reset to initial transient source value
             in source        0:vinclk              new dc=  0.0000D+00

 ** warning** associated with encrypted blocks were suppressed

 
      
  Opening plot unit= 79
 file=c:\users\mehrdad\desktop\ca\ca3\dynamic\dynamic.pa0                      

1****** HSPICE -- A-2008.03 32-BIT (Feb 26 2008) winnt ******                   
 ******  
 * dynamic                                                                      
  ******  operating point information      tnom=  25.000 temp=  25.000          
 ******  
 ***** operating point status is all       simulation time is     0.     
    node    =voltage      node    =voltage      node    =voltage

 +0:a       =   1.0000  0:clk     =   0.      0:vm      =   1.0000 
 +0:w1      = 999.9653m 0:w2      =  52.8244m 0:x       =   0.     
 +0:y1      =  52.8271m 0:y2      = 999.4885m 3:wire    = 999.8652m
 +4:wire    = 104.5842m 5:2       =  18.1056u 7:2       =  51.5152m


 ****  voltage sources

 subckt                                              
 element  0:vsupply  0:vina     0:vinx     0:vinclk  
  volts      1.0000     1.0000     0.         0.     
  current -233.8728u -266.7329p   55.9972p  658.1066p
  power    233.8728u  266.7329p    0.         0.     

     total voltage source power dissipation=  233.8731u       watts




 **** mosfets


 subckt   x1         x1         x2         x2         x3.xnand   x3.xnand  
 element  1:mp1      1:mn1      2:mp1      2:mn1      5:mp1      5:mn1     
 model    0:pmos     0:nmos     0:pmos     0:nmos     0:pmos     0:nmos    
 region       Linear     Cutoff   Saturati     Linear     Linear     Linear
  id        -7.3667n    7.0285n  -78.5219u   78.5220u  -28.6264n   28.4436n
  ibs     -4.517e-24  9.494e-25 -3.564e-23  5.810e-23 -4.518e-24  5.276e-23
  ibd       48.1703a   -1.0100p  957.1756f  -61.5449f  187.1012a  -25.1503a
  vgs       -1.0000     0.        -1.0000   999.9653m   -1.0000     1.0000 
  vds      -34.6807u  999.9653m -947.1756m   52.8244m -134.7788u   18.1056u
  vbs        0.         0.         0.         0.         0.         0.     
  vth     -487.5918m  339.7789m -343.9566m  460.0730m -487.5766m  466.7799m
  vdsat   -383.1181m   39.4148m -452.7258m  345.6717m -383.1258m  342.5004m
  vod     -512.4082m -339.7789m -656.0434m  539.8923m -512.4234m  533.2201m
  beta     680.0565u   18.6926m  758.5317u   10.0874m  680.0645u   10.0282m
  gam eff  400.0000m  400.0000m  400.0000m  400.0000m  400.0000m  400.0000m
  gm         7.2501n  187.0920n  141.1784u   38.6633u   28.1778n   11.1135n
  gds      212.4085u   26.3314n   35.5523u    1.4026m  212.3676u    1.5710m
  gmb        2.4807n   47.5390n   31.2841u   15.5904u    9.6405n    5.1222n
  cdtot    127.3499a  235.7269a   68.6098a  490.7761a  127.3282a  556.3218a
  cgtot    120.3044a  274.8011a  112.4155a  525.3500a  120.3036a  528.2031a
  cstot    115.8759a  430.0479a  133.9260a  508.9722a  115.8890a  474.1051a
  cbtot    125.1118a  470.1633a  114.5487a  498.3843a  125.1093a  503.3303a
  cgs       68.2792a  142.6259a   81.7252a  316.5385a   68.2868a  295.1479a
  cgd       51.5005a   92.5815a   29.4765a  208.6294a   51.4920a  233.5166a



 subckt   x3.xnand   x3.xinvert x3.xinvert x4.xnand   x4.xnand   x4.xnand  
 element  5:mn2      6:mp1      6:mn1      7:mp1      7:mn1      7:mn2     
 model    0:nmos     0:pmos     0:nmos     0:pmos     0:nmos     0:nmos    
 region       Cutoff   Saturati     Linear   Saturati     Linear     Linear
  id        28.3894n  -78.5218u   78.5218u  -76.6841u   76.6843u   76.6841u
  ibs      9.537e-25 -3.564e-23  5.800e-23 -3.210e-23  5.800e-23  2.249e-23
  ibd       -1.0098p  957.1729f  -61.5477f  905.4158f  -60.1687f  -61.8016f
  vgs       52.8063m   -1.0000   999.8652m   -1.0000     1.0000   948.4501m
  vds      999.8471m -947.1729m   52.8271m -895.4158m   51.5152m   53.0690m
  vbs        0.         0.         0.         0.         0.         0.     
  vth      339.7940m -343.9570m  460.0727m -351.8060m  460.2393m  460.0420m
  vdsat     39.4493m -452.7256m  345.6172m -449.0870m  345.6116m  317.5315m
  vod     -286.9876m -656.0430m  539.7925m -648.1940m  539.7607m  488.4082m
  beta      18.6912m  758.5315u   10.0882m  754.0311u   10.0857m   10.4791m
  gam eff  400.0000m  400.0000m  400.0000m  400.0000m  400.0000m  400.0000m
  gm       744.6949n  141.1784u   38.6779u  140.0284u   37.5521u   46.0705u
  gds      104.9539n   35.5523u    1.4025m   35.5108u    1.4067m    1.3543m
  gmb      182.9564n   31.2841u   15.5941u   31.0447u   15.1878u   17.3354u
  cdtot    236.1219a   68.6099a  490.7493a   70.2882a  492.7291a  477.6346a
  cgtot    280.9733a  112.4156a  525.3453a  113.7175a  525.4575a  522.8208a
  cstot    437.1577a  133.9260a  508.9817a  133.8957a  508.0892a  513.3762a
  cbtot    468.8355a  114.5487a  498.3835a  114.8484a  498.5260a  498.0554a
  cgs      149.7385a   81.7252a  316.5423a   81.6833a  315.9538a  318.1531a
  cgd       92.9733a   29.4765a  208.6197a   30.8345a  209.3448a  203.9629a



 subckt   x4.xinvert x4.xinvert
 element  8:mp1      8:mn1     
 model    0:pmos     0:nmos    
 region       Linear     Cutoff
  id      -108.5999n  108.5042n
  ibs     -4.522e-24  9.697e-25
  ibd      708.6161a   -1.0095p
  vgs       -1.0000   104.5842m
  vds     -511.4960u  999.4885m
  vbs        0.         0.     
  vth     -487.5195m  339.8395m
  vdsat   -383.1549m   39.5781m
  vod     -512.4805m -235.2553m
  beta     680.0942u   18.6866m
  gam eff  400.0000m  400.0000m
  gm       106.9623n    2.7718u
  gds      212.2137u  391.6053n
  gmb       36.5813n  659.4818n
  cdtot    127.2466a  236.5615a
  cgtot    120.3008a  286.1711a
  cstot    115.9385a  443.1028a
  cbtot    125.0998a  467.6608a
  cgs       68.3155a  155.6977a
  cgd       51.4599a   93.4025a



 ******  
 * dynamic                                                                      
  ******  transient analysis               tnom=  25.000 temp=  25.000          
 ******  

**warning** measure results may be incorrect
       since initial start time is non-zero.
   avgpower=  1.0602E-04  from=  1.0000E-09     to=  2.0000E-07
   tphl=  2.1206E-09  targ=  7.1211E-09   trig=  5.0005E-09
   tplh=  3.1068E-09  targ=  5.1083E-09   trig=  2.0015E-09

          ***** job concluded
1****** HSPICE -- A-2008.03 32-BIT (Feb 26 2008) winnt ******                   
 ******  
 * dynamic                                                                      
  ******  job statistics summary           tnom=  25.000 temp=  25.000          
 ******  

           total memory used        206 kbytes

  # nodes =      69 # elements=      24
  # diodes=       0 # bjts    =       0 # jfets   =       0 # mosfets =      14
  # va device =       0

    analysis           time    # points   tot. iter  conv.iter

    op point           0.02           1          47
    transient          0.61        1991        6095        2562 rev=       157
    readin             0.02
    errchk             0.01
    setup              0.01
    output             0.00
           total cpu time          0.85 seconds
           total elapsed time         1 seconds
               job started at  15:13:57 11/14/2018
               job ended   at  15:13:58 11/14/2018


 Init: hspice initialization file: C:\synopsys\Hspice_A-2008.03\hspice.ini
